!Agilent Technologies,E8361C,US48110103,A.09.42.22
!Agilent E8361C: A.09.42.22
!Date: Friday, May 29, 2026 08:51:00
!Correction: S11(Full 2 Port(1,2)) 
!S1P File: Measurement: S11:
# Hz S  dB   R 50
30000000 -2.0452797 -142.04338
33350000 -1.772486 -162.32117
36700000 -1.534245 177.75056
40050000 -1.4286048 158.34097
43400000 -1.3489295 140.75043
46750000 -1.1667755 122.7614
50100000 -1.0482607 104.11451
53450000 -1.1305349 85.537743
56800000 -1.353307 68.463753
60150000 -1.459193 52.219398
63500000 -1.9881086 30.856514
66850000 -3.2898734 16.138346
70200000 -4.2778153 6.5014005
73550000 -4.2429042 0.80148202
76900000 -3.5614319 -13.203461
80250000 -3.8840249 -30.252892
83600000 -5.0846429 -43.635559
86950000 -4.9983473 -47.108112
90300000 -4.6880088 -65.173203
93650000 -5.7819614 -78.36705
97000000 -7.1889687 -89.982399
100350000 -8.9130125 -84.35183
103700000 -6.9053493 -86.361549
107050000 -6.2410202 -98.09169
110400000 -6.2412791 -108.66853
113750000 -6.3961082 -114.9894
117100000 -5.3955026 -120.14714
120450000 -4.4144316 -131.74504
123800000 -3.7324493 -143.96751
127150000 -3.11812 -157.66418
130500000 -2.6913416 -172.08609
133850000 -2.4076815 172.47615
137200000 -2.3426647 156.42287
140550000 -2.5602927 140.28452
143900000 -2.9867241 124.49123
147250000 -3.553515 108.90611
150600000 -4.2300878 92.74369
153950000 -5.2606869 75.479469
157300000 -6.8693852 59.149944
160650000 -8.5644999 44.882439
164000000 -10.582169 30.126169
167350000 -12.741404 14.959865
170700000 -15.659473 -5.7803741
174050000 -20.002708 -40.241009
177400000 -26.160898 -109.65961
180750000 -24.08238 169.97849
184100000 -22.738218 141.30916
187450000 -20.952145 141.51385
190800000 -18.594231 138.07957
194150000 -16.229095 127.62292
197500000 -15.879212 116.16286
200850000 -15.63525 122.37769
204200000 -12.799241 116.56833
207550000 -11.050696 107.56211
210900000 -9.335104 92.138176
214250000 -9.4918146 77.43811
217600000 -8.7082767 70.424706
220950000 -7.7722306 57.505959
224300000 -7.9043903 48.086372
227650000 -6.7287288 33.253502
231000000 -6.9361515 18.424919
234350000 -7.2793107 7.9163704
237700000 -7.2041678 -3.0999851
241050000 -7.6246505 -15.322585
244400000 -8.0798845 -23.833172
247750000 -8.2543106 -31.919186
251100000 -8.3115263 -41.281483
254450000 -8.5590982 -51.466881
257800000 -9.1905107 -60.517567
261150000 -9.7129774 -66.374779
264500000 -9.8346949 -72.007751
267850000 -10.39748 -78.899673
271200000 -10.70967 -79.711975
274550000 -9.8776283 -82.179413
277900000 -9.1148682 -90.349777
281250000 -9.0168991 -101.18204
284600000 -9.292861 -108.38897
287950000 -9.2253599 -114.17675
291300000 -9.0114841 -120.68364
294650000 -9.0093203 -128.80255
298000000 -9.2483273 -134.59734
301350000 -9.140687 -138.43819
304700000 -8.6893053 -144.53854
308050000 -8.764801 -152.62334
311400000 -8.9126949 -153.74805
314750000 -7.5907507 -158.18011
318100000 -7.0732856 -170.01387
321450000 -7.2657428 -178.56001
324800000 -7.1789937 176.16684
328150000 -6.8554349 169.98843
331500000 -6.4987621 163.61642
334850000 -6.145113 156.13326
338200000 -5.9518862 149.07362
341550000 -5.6807332 142.61771
344900000 -5.294456 135.75366
348250000 -4.9543085 127.85164
351600000 -4.7564154 120.14281
354950000 -4.6097379 112.36318
358300000 -4.5007124 105.56295
361650000 -4.314301 98.791527
365000000 -4.0903296 91.799095
368350000 -3.9067848 84.759361
371700000 -3.7205966 77.376564
375050000 -3.6298144 70.164597
378400000 -3.5206661 62.910545
381750000 -3.4237013 55.484314
385100000 -3.4040225 48.213501
388450000 -3.3727043 41.285149
391800000 -3.3360617 34.205292
395150000 -3.3325903 27.163481
398500000 -3.3367033 20.241753
401850000 -3.3360131 13.45206
405200000 -3.3179564 6.6106019
408550000 -3.3152483 -0.44929048
411900000 -3.2866561 -7.491045
415250000 -3.2685533 -14.546274
418600000 -3.2111602 -21.799185
421950000 -3.1808031 -29.363464
425300000 -3.1478739 -37.038586
428650000 -3.1564169 -44.814404
432000000 -3.1488979 -52.61964
435350000 -3.1724913 -60.642376
438700000 -3.2118776 -68.499878
442050000 -3.2066815 -76.305801
445400000 -3.2194631 -84.327591
448750000 -3.2209036 -92.423355
452100000 -3.265224 -100.4864
455450000 -3.3034205 -108.35789
458800000 -3.3140316 -115.9279
462150000 -3.2856457 -123.70117
465500000 -3.254643 -131.71359
468850000 -3.2594328 -139.57892
472200000 -3.2641146 -147.13728
475550000 -3.2271461 -154.70683
478900000 -3.1753771 -162.35364
482250000 -3.127686 -170.04257
485600000 -3.1101215 -177.6929
488950000 -3.1009996 174.87868
492300000 -3.0864172 167.6375
495650000 -3.0487032 160.25052
499000000 -3.0282519 153.09447
502350000 -3.0002625 145.88271
505700000 -2.9755666 138.60448
509050000 -2.9588237 131.55074
512400000 -2.9399261 124.50871
515750000 -2.9347045 117.63078
519100000 -2.9111857 110.78343
522450000 -2.9222775 103.87355
525800000 -2.9252028 97.095016
529150000 -2.919625 90.399673
532500000 -2.9098785 83.68692
535850000 -2.8966572 77.017578
539200000 -2.9061165 70.27977
542550000 -2.9406443 63.530781
545900000 -3.0019701 57.082664
549250000 -3.0375392 50.478558
552600000 -3.0921941 44.063385
555950000 -3.1438544 37.642689
559300000 -3.1748593 31.259184
562650000 -3.22651 24.68573
566000000 -3.2937996 18.333435
569350000 -3.3737419 12.000204
572700000 -3.4485254 5.56528
576050000 -3.5070987 -0.83371937
579400000 -3.5715396 -7.5063376
582750000 -3.6438956 -14.213154
586100000 -3.7261257 -20.99305
589450000 -3.8089056 -28.045965
592800000 -3.9260428 -35.187229
596150000 -4.0808716 -42.319939
599500000 -4.2278733 -49.45256
602850000 -4.3899598 -56.871872
606200000 -4.571959 -64.302315
609550000 -4.7564211 -71.705536
612900000 -4.9401555 -79.207375
616250000 -5.1334386 -86.732079
619600000 -5.3210235 -94.726601
622950000 -5.5637217 -102.60011
626300000 -5.8160777 -110.31027
629650000 -6.0601521 -117.86092
633000000 -6.2860851 -125.5332
636350000 -6.4993458 -133.23335
639700000 -6.7500525 -140.93112
643050000 -6.982163 -148.38095
646400000 -7.2259068 -155.54652
649750000 -7.4562545 -162.69473
653100000 -7.6735864 -169.55492
656450000 -7.8841429 -175.92703
659800000 -8.0134182 177.92865
663150000 -8.1493921 171.64285
666500000 -8.3135185 165.66795
669850000 -8.4690847 160.10429
673200000 -8.5534487 154.95786
676550000 -8.6173515 150.13298
679900000 -8.6240711 145.1619
683250000 -8.6168337 140.60046
686600000 -8.560791 136.23286
689950000 -8.4284601 131.81049
693300000 -8.2770576 127.17434
696650000 -8.1399431 122.60662
700000000 -7.9442706 117.89057
