!Agilent Technologies,E8361C,US48110103,A.09.42.22
!Agilent E8361C: A.09.42.22
!Date: Monday, June 01, 2026 17:37:28
!Correction: S11(Full 2 Port(1,2)) 
!S1P File: Measurement: S11:
# Hz S  dB   R 50
30000000 -0.25986469 94.815376
33350000 -0.2744675 85.486877
36700000 -0.27889246 76.167679
40050000 -0.27957046 66.860001
43400000 -0.27261996 57.575073
46750000 -0.2951467 48.251675
50100000 -0.28951484 38.891525
53450000 -0.28018612 29.561165
56800000 -0.27405316 20.250498
60150000 -0.25178179 10.79357
63500000 -0.30636835 1.1504035
66850000 -0.28067142 -8.3176374
70200000 -0.28069788 -17.838139
73550000 -0.27836257 -27.343798
76900000 -0.26995677 -36.831768
80250000 -0.26724419 -46.363056
83600000 -0.24910349 -55.842575
86950000 -0.245673 -65.437035
90300000 -0.24659565 -74.858047
93650000 -0.24301107 -84.374939
97000000 -0.25082728 -93.931557
100350000 -0.24595512 -103.47755
103700000 -0.22002205 -112.92587
107050000 -0.2171835 -122.49876
110400000 -0.2359712 -132.04639
113750000 -0.2403246 -141.59189
117100000 -0.25904429 -151.10754
120450000 -0.26640916 -160.6736
123800000 -0.29837519 -170.17978
127150000 -0.30498397 -179.6723
130500000 -0.32782221 170.8038
133850000 -0.35580951 161.16522
137200000 -0.37627783 151.65617
140550000 -0.40778396 142.03394
143900000 -0.43684077 132.5183
147250000 -0.44771451 122.75231
150600000 -0.50020438 113.04789
153950000 -0.54003555 103.3905
157300000 -0.5678575 93.637222
160650000 -0.56716162 83.79306
164000000 -0.57863706 73.789856
167350000 -0.62748516 63.57177
170700000 -0.68080813 53.292229
174050000 -0.72198439 42.753693
177400000 -0.76073205 31.992193
180750000 -0.82153428 20.964333
184100000 -0.89999002 9.3483791
187450000 -1.0492988 -2.7617896
190800000 -1.2874253 -15.234694
194150000 -1.6213667 -28.406981
197500000 -2.2898262 -41.9151
200850000 -3.0755498 -54.134674
204200000 -4.1111636 -64.873489
207550000 -4.5779614 -74.033005
210900000 -5.1948099 -88.550812
214250000 -6.3899016 -104.12319
217600000 -8.6746912 -119.80466
220950000 -12.035891 -123.89874
224300000 -13.413138 -124.22108
227650000 -15.278772 -131.67982
231000000 -22.520821 -152.24986
234350000 -25.883026 -31.363094
237700000 -16.083286 -32.033806
241050000 -12.404331 -45.285137
244400000 -9.6141167 -56.567001
247750000 -8.0195112 -71.59346
251100000 -6.5959072 -83.488541
254450000 -5.7087126 -97.77977
257800000 -4.99682 -108.98759
261150000 -4.2457194 -121.95631
264500000 -3.7887146 -134.51382
267850000 -3.5977693 -146.27141
271200000 -3.2655957 -157.2345
274550000 -2.9365244 -169.04944
277900000 -2.8383257 178.90146
281250000 -2.8403015 168.1151
284600000 -2.8369811 157.31361
287950000 -2.9387872 146.98701
291300000 -3.0480263 137.27831
294650000 -3.1813087 128.1124
298000000 -3.3403578 119.51762
301350000 -3.3785138 112.32307
304700000 -3.1554282 104.45824
308050000 -2.9034839 95.492752
311400000 -2.7584743 85.671822
314750000 -2.6879678 76.052505
318100000 -2.6382265 66.370293
321450000 -2.6626251 56.346481
324800000 -2.7901058 46.937374
328150000 -2.8495464 38.206985
331500000 -2.8687406 29.309397
334850000 -2.8599212 20.600304
338200000 -2.8279014 11.616561
341550000 -2.7655518 2.4559224
344900000 -2.6682899 -7.1136227
348250000 -2.7063382 -17.553295
351600000 -2.8428509 -27.242409
354950000 -2.9748175 -36.755962
358300000 -3.1181357 -45.709705
361650000 -3.1604757 -54.402073
365000000 -3.150579 -63.260242
368350000 -3.0831995 -72.36599
371700000 -2.9871275 -82.145874
375050000 -2.935823 -92.315315
378400000 -2.9422531 -103.28356
381750000 -3.1414914 -113.60436
385100000 -3.2228007 -123.20364
388450000 -3.3170872 -133.62054
391800000 -3.4824765 -143.409
395150000 -3.6514554 -153.28419
398500000 -3.8296118 -162.52594
401850000 -3.9787292 -172.0874
405200000 -4.0910559 178.65524
408550000 -4.2655206 169.62184
411900000 -4.2547917 161.07646
415250000 -4.2538114 151.1225
418600000 -4.3433232 141.79044
421950000 -4.3237796 131.91785
425300000 -4.4245567 121.47502
428650000 -4.6487627 110.90027
432000000 -4.9865346 101.18218
435350000 -5.2795315 91.698807
438700000 -5.7199421 83.066605
442050000 -5.8368592 75.506058
445400000 -5.9013844 65.907082
448750000 -6.170218 56.264618
452100000 -6.4383526 47.151413
455450000 -6.6837029 37.026207
458800000 -7.1137567 26.992632
462150000 -7.6047282 17.807835
465500000 -7.8975191 9.1623249
468850000 -8.1483116 -1.6877999
472200000 -8.7749376 -12.577812
475550000 -9.4711981 -22.527365
478900000 -10.152863 -30.910906
482250000 -10.568611 -38.542938
485600000 -10.589801 -48.506378
488950000 -10.764023 -60.849903
492300000 -11.10021 -76.092659
495650000 -11.936954 -90.049408
499000000 -12.425121 -102.90356
502350000 -12.643449 -119.24924
505700000 -13.274469 -141.19943
509050000 -15.094441 -161.71524
512400000 -16.699606 -175.41147
515750000 -17.275057 170.82922
519100000 -17.555515 151.153
522450000 -18.250402 129.39293
525800000 -18.924311 109.19975
529150000 -19.386806 88.296448
532500000 -20.088102 67.96302
535850000 -20.136166 55.159988
539200000 -19.403616 36.534676
542550000 -19.04022 15.743168
545900000 -19.03083 -2.984612
549250000 -19.109512 -20.066738
552600000 -19.588903 -32.345634
555950000 -18.827684 -37.857929
559300000 -17.249157 -50.988487
562650000 -16.382542 -66.355888
566000000 -15.159459 -80.621323
569350000 -14.306479 -99.253319
572700000 -14.33424 -117.27976
576050000 -14.727982 -129.65739
579400000 -14.656094 -137.72398
582750000 -14.150681 -148.15009
586100000 -14.283463 -158.79025
589450000 -14.047621 -162.95157
592800000 -13.184857 -169.90575
596150000 -12.32934 -177.98747
599500000 -11.48779 171.49461
602850000 -10.949568 160.80992
606200000 -10.464632 151.5932
609550000 -9.8418207 140.88373
612900000 -9.6931925 130.65327
616250000 -9.3016844 122.28355
619600000 -8.6954918 112.74851
622950000 -8.3019953 100.61746
626300000 -8.3537273 89.312286
629650000 -8.4648876 80.341476
633000000 -8.3519154 71.776543
636350000 -8.34027 63.279301
639700000 -8.1944675 54.872513
643050000 -8.0594282 46.568596
646400000 -7.7563109 36.958679
649750000 -7.7721786 26.340612
653100000 -7.9138494 17.063753
656450000 -7.911397 8.5420589
659800000 -7.8847775 -1.2125056
663150000 -8.0178699 -10.649158
666500000 -8.0336399 -19.304302
669850000 -7.9090114 -29.197559
673200000 -7.9961934 -40.407803
676550000 -8.1478882 -50.524899
679900000 -8.2695093 -61.041142
683250000 -8.3691578 -71.86985
686600000 -8.6704655 -83.367493
689950000 -9.078949 -92.605598
693300000 -9.1326427 -100.84857
696650000 -8.9482222 -111.31689
700000000 -8.9954128 -122.83035
