!Agilent Technologies,E8361C,US48110103,A.09.42.22
!Agilent E8361C: A.09.42.22
!Date: Friday, May 29, 2026 14:20:55
!Correction: S11(Full 2 Port(1,2)) 
!S1P File: Measurement: S11:
# Hz S  dB   R 50
30000000 -2.2020032 -173.94887
33350000 -2.0551925 162.39476
36700000 -1.9321526 140.9583
40050000 -1.7071892 119.63247
43400000 -1.5458001 99.712868
46750000 -1.3236285 79.051453
50100000 -1.3312263 58.073502
53450000 -1.4162077 39.355125
56800000 -1.4013717 19.491297
60150000 -1.5762591 -0.33730358
63500000 -2.1209033 -20.519474
66850000 -2.67817 -37.283337
70200000 -3.0321989 -52.949543
73550000 -3.1518197 -69.3433
76900000 -3.3772891 -86.015984
80250000 -3.5655301 -103.17876
83600000 -4.1675987 -120.19849
86950000 -4.3083968 -136.11705
90300000 -4.977849 -154.30556
93650000 -5.9162531 -168.92783
97000000 -6.4873967 177.57928
100350000 -7.2456484 162.043
103700000 -7.9330263 149.26888
107050000 -9.3713684 133.38235
110400000 -10.987871 129.61949
113750000 -11.246322 124.18851
117100000 -11.268652 117.3453
120450000 -11.320458 107.30551
123800000 -11.295702 101.38428
127150000 -10.247439 88.107445
130500000 -10.007957 68.29483
133850000 -10.872749 46.883343
137200000 -12.97729 28.130018
140550000 -15.36144 24.866537
143900000 -14.961381 22.075874
147250000 -14.431962 4.4679527
150600000 -14.572746 -17.664625
153950000 -14.906403 -45.284523
157300000 -15.931966 -81.71357
160650000 -16.543474 -119.42893
164000000 -16.65556 -161.9977
167350000 -16.261614 164.05992
170700000 -15.127701 138.7066
174050000 -13.629794 116.42442
177400000 -12.438716 95.128365
180750000 -11.714038 77.177124
184100000 -10.976185 62.119587
187450000 -10.188719 46.639343
190800000 -9.8472576 32.811756
194150000 -9.1877794 20.121502
197500000 -8.8688278 6.3454857
200850000 -8.5580387 -5.9337502
204200000 -8.3379154 -17.486582
207550000 -8.0202084 -28.749807
210900000 -7.6456704 -39.935745
214250000 -7.313796 -53.484665
217600000 -7.4990101 -67.616524
220950000 -7.9744015 -75.991219
224300000 -7.8678589 -86.268852
227650000 -8.0103779 -93.897964
231000000 -7.6153226 -102.8744
234350000 -7.4191475 -113.51312
237700000 -7.3190298 -123.08005
241050000 -7.0670886 -133.16585
244400000 -6.9209619 -143.86046
247750000 -6.8100429 -154.46968
251100000 -6.7447701 -164.85971
254450000 -6.6535659 -175.0916
257800000 -6.4739981 174.27512
261150000 -6.4503613 162.21016
264500000 -6.6160088 151.95967
267850000 -6.6288514 141.22931
271200000 -6.808877 130.50789
274550000 -7.1540036 120.59419
277900000 -7.3544545 113.03699
281250000 -7.2114906 105.8102
284600000 -7.0192027 96.484795
287950000 -6.9827394 87.211128
291300000 -6.9036183 78.759789
294650000 -6.6998773 70.001793
298000000 -6.4333901 60.890476
301350000 -6.1351523 51.092045
304700000 -5.896729 40.637314
308050000 -5.7760253 29.678766
311400000 -5.7934551 19.884689
314750000 -5.6424313 10.208723
318100000 -5.5491385 -0.038185503
321450000 -5.5265207 -10.138251
324800000 -5.5648899 -20.011734
328150000 -5.5613413 -29.154041
331500000 -5.5435643 -38.454403
334850000 -5.5575523 -47.332653
338200000 -5.5411286 -55.867722
341550000 -5.4952669 -64.200356
344900000 -5.3974819 -72.351067
348250000 -5.268054 -80.568428
351600000 -5.1219182 -88.696922
354950000 -4.9425998 -97.036797
358300000 -4.7195148 -105.44867
361650000 -4.4743562 -114.52437
365000000 -4.3202133 -123.91628
368350000 -4.221756 -133.13895
371700000 -4.1288424 -142.0939
375050000 -4.0394845 -151.41222
378400000 -4.0461645 -160.79173
381750000 -4.0986495 -169.76881
385100000 -4.1695189 -178.45561
388450000 -4.2267661 173.56305
391800000 -4.169323 165.57985
395150000 -4.1104059 157.03471
398500000 -4.0676937 148.37099
401850000 -4.057241 139.63173
405200000 -4.0902343 130.89447
408550000 -4.1571455 122.47347
411900000 -4.1886663 114.38943
415250000 -4.1288123 106.23191
418600000 -4.0601516 97.439728
421950000 -4.0571594 88.558113
425300000 -4.0353198 79.637794
428650000 -4.035162 70.725677
432000000 -4.0396256 61.753693
435350000 -4.0304456 52.772793
438700000 -4.0004082 43.533669
442050000 -3.9792492 33.882851
445400000 -4.0087075 24.008169
448750000 -4.0559573 14.275673
452100000 -4.0904856 4.5158033
455450000 -4.1694741 -5.5225096
458800000 -4.2834291 -15.410548
462150000 -4.3742414 -25.074505
465500000 -4.4687061 -34.617615
468850000 -4.4937568 -44.104633
472200000 -4.5228176 -53.790848
475550000 -4.5639496 -63.332806
478900000 -4.5644774 -72.807625
482250000 -4.4988966 -82.067245
485600000 -4.4194303 -91.538116
488950000 -4.3442407 -101.11011
492300000 -4.2600198 -110.60441
495650000 -4.1971254 -120.11127
499000000 -4.1118884 -129.65408
502350000 -4.0312967 -138.82422
505700000 -3.9497449 -148.0697
509050000 -3.8397405 -157.14192
512400000 -3.7633669 -166.19894
515750000 -3.7052183 -175.26967
519100000 -3.6804433 175.93579
522450000 -3.6571219 167.39543
525800000 -3.6098604 158.8679
529150000 -3.5683653 150.31523
532500000 -3.5311739 141.74724
535850000 -3.5263875 133.38853
539200000 -3.5389481 125.1905
542550000 -3.5534229 117.08358
545900000 -3.5735838 108.82939
549250000 -3.6002073 100.58185
552600000 -3.6298981 92.395279
555950000 -3.6778193 84.319832
559300000 -3.742635 76.173363
562650000 -3.8284357 68.07695
566000000 -3.8787184 59.976185
569350000 -3.952347 51.827793
572700000 -4.0439696 43.435177
576050000 -4.1457257 34.9781
579400000 -4.2659349 26.498644
582750000 -4.4052181 18.068277
586100000 -4.5318651 9.5165682
589450000 -4.7091951 0.87675917
592800000 -4.8918891 -7.7260008
596150000 -5.0752707 -16.245718
599500000 -5.2368431 -25.023067
602850000 -5.4176669 -33.849888
606200000 -5.5940633 -42.858242
609550000 -5.7793918 -52.076244
612900000 -5.9796319 -61.503689
616250000 -6.2160177 -70.804108
619600000 -6.4478707 -80.227264
622950000 -6.6818252 -89.687569
626300000 -6.9361014 -99.313065
629650000 -7.1898227 -108.74026
633000000 -7.432703 -118.1727
636350000 -7.6699061 -127.51083
639700000 -7.8574181 -136.70717
643050000 -8.0320263 -145.81053
646400000 -8.1746206 -154.74077
649750000 -8.2884464 -163.59413
653100000 -8.3886318 -172.42616
656450000 -8.4678907 178.89038
659800000 -8.4641953 170.39703
663150000 -8.4822464 161.69281
666500000 -8.4826469 153.26843
669850000 -8.4966211 145.24536
673200000 -8.4694958 137.46323
676550000 -8.4266472 129.56834
679900000 -8.4163103 121.92688
683250000 -8.3639212 114.6446
686600000 -8.3438416 107.60535
689950000 -8.2840452 100.82062
693300000 -8.2059402 94.240707
696650000 -8.0752497 87.583923
700000000 -7.9658694 80.750603
